!Keysight Technologies,E5080A,MY55100160,A.12.60.03
!Date: Tuesday, October 26, 2021 18:19:33
!Correction: S11(Full 4 Port(1,2,3,4)) 
!S21(Full 4 Port(1,2,3,4)) 
!S12(Full 4 Port(1,2,3,4)) 
!S22(Full 4 Port(1,2,3,4)) 
!S2P File: Measurements: S11, S21, S12, S22:Log Frequency Sweep
# Hz S  dB   R 50
300000 -56.84029 72.860252 -0.0095840972 -0.22046444 -0.01451816 -0.22995271 -47.318871 87.553902
301939.16904098 -51.940132 101.97501 -0.0046470566 -0.18916178 -0.013147466 -0.2069217 -51.02541 87.146782
303890.87267053 -48.866253 107.06522 -0.0054355776 -0.23094498 -0.0068763914 -0.24572802 -57.464718 83.44191
305855.19191092 -57.009811 143.29938 -0.016388908 -0.21589202 -0.019850744 -0.20496753 -47.412174 81.599197
307832.20830818 -55.53651 81.526276 -0.010376303 -0.24050914 -0.016400026 -0.22177303 -51.921146 97.626434
309822.00393541 -47.642128 81.407204 -0.0026553101 -0.21025069 -0.015386081 -0.24438652 -50.644741 142.19507
311824.66139623 -49.375942 143.72914 -0.0090523027 -0.18370795 -0.0098065855 -0.22636971 -49.052692 87.903763
313840.26382821 -51.188129 123.07095 -0.0077090384 -0.22235359 -0.0071939067 -0.17295402 -49.164379 83.040283
315868.8949063 -57.7015 88.805031 -0.0073415753 -0.23365077 -0.0082851006 -0.24123058 -51.574398 74.1017
317910.63884634 -51.19838 92.172371 -0.011688028 -0.23852886 -0.011334942 -0.23778316 -54.232906 142.71536
319965.58040851 -46.878872 101.85851 -0.0064331605 -0.26227099 -0.0071549807 -0.20327407 -54.831913 95.955933
322033.80490086 -53.352024 123.76777 -0.0074227569 -0.20729464 -0.01216779 -0.22638683 -48.846226 86.112007
324115.39818291 -48.157387 116.27036 -0.010572371 -0.2207558 -0.011199919 -0.18649173 -52.065029 68.963219
326210.44666911 -54.099445 117.88338 -0.01226183 -0.20226255 -0.010310903 -0.22290002 -51.515553 76.486801
328319.03733253 -53.515224 94.976921 -0.0018344156 -0.20380057 -0.011520514 -0.24431139 -50.154144 89.394958
330441.2577084 -50.992828 68.368271 -0.0095113087 -0.23040313 -0.011065197 -0.25322449 -55.224144 112.91452
332577.19589777 -47.434677 102.17005 -0.0097709456 -0.24527788 -0.0093080299 -0.22104406 -52.281296 96.721405
334726.94057117 -48.902531 109.30148 -0.0089192418 -0.18555978 -0.0047850697 -0.21030246 -52.9729 86.589409
336890.5809723 -49.772488 70.081917 -0.0090040984 -0.20200171 -0.010906491 -0.1896631 -53.360275 117.37492
339068.20692169 -53.664173 107.14762 -0.0081918016 -0.24767202 -0.0081076622 -0.24557962 -49.282173 98.406883
341259.90882051 -49.259575 124.53629 -0.0038123776 -0.24778768 -0.0023599267 -0.22411025 -58.004799 39.610836
343465.77765421 -50.691711 89.225784 -0.006318551 -0.24784492 -0.01323619 -0.29967344 -52.316422 97.451881
345685.90499643 -50.200596 118.55938 -0.0054225521 -0.23609574 -0.011098838 -0.22109103 -50.165112 70.234077
347920.38301267 -47.645657 66.053139 -0.010105661 -0.21390007 -0.0086110989 -0.23459144 -55.294922 96.798233
350169.30446422 -52.332752 109.44722 -0.01017327 -0.22770709 -0.010290619 -0.20659992 -58.022327 48.07748
352432.76271195 -51.256313 88.949829 -0.0094068451 -0.24084072 -0.015470469 -0.26090613 -53.396599 73.717621
354710.85172021 -53.443825 141.66621 -0.013943803 -0.19141708 -0.014383391 -0.19577195 -49.019249 62.448586
357003.66606072 -48.654213 129.50291 -0.0094609102 -0.23397979 -0.014631958 -0.22872634 -50.992638 38.765892
359311.30091653 -52.330399 97.030312 -0.012812132 -0.26485723 -0.014834806 -0.2506856 -49.294556 51.024208
361633.8520859 -55.870102 127.61078 -0.012096963 -0.21265283 -0.014980811 -0.19578351 -53.068409 58.855728
363971.41598636 -49.827316 97.15905 -0.0099204415 -0.20002882 -0.0085745985 -0.17245337 -54.335922 83.085152
366324.08965863 -53.951012 86.332474 -0.0053844168 -0.25798103 -0.0094241658 -0.20913364 -47.899654 137.45583
368691.97077074 -50.652103 131.63121 -0.011008718 -0.20911355 -0.012853682 -0.23159361 -50.695423 67.833519
371075.15762199 -50.821259 66.122787 -0.003424125 -0.20509127 -0.010985609 -0.22757903 -58.854412 132.48015
373473.74914712 -52.850937 92.959969 -0.010780153 -0.21091171 -0.018452587 -0.21215527 -50.403938 92.952568
375887.84492033 -50.798927 96.934074 -0.013067541 -0.25842029 -0.015202686 -0.2543003 -49.516113 84.064842
378317.5451595 -53.075684 109.3549 -0.0022428348 -0.17852001 -0.010960527 -0.19147351 -51.521629 100.45117
380762.95073028 -55.580956 116.35554 -0.0060137059 -0.22585432 -0.011132872 -0.21328625 -49.056076 68.532166
383224.16315031 -49.033352 116.48583 -0.0078814998 -0.21169072 -0.0088026877 -0.20549306 -57.124119 78.56073
385701.28459343 -55.897945 118.07921 -0.0075910892 -0.28187373 -0.013768636 -0.20884903 -48.856396 72.766975
388194.41789393 -51.679916 117.31551 -0.0085173249 -0.23621407 -0.0027264645 -0.26138413 -53.337822 35.123249
390703.6665508 -48.944397 129.22635 -0.0095568383 -0.21651359 -0.013523174 -0.22368728 -58.004829 59.716835
393229.13473205 -50.422169 75.718948 -0.0058078342 -0.26225924 -0.0011945207 -0.25171548 -54.0793 143.01965
395770.92727899 -51.94157 114.87362 -0.0094880983 -0.21798189 -0.010670532 -0.21227756 -53.026779 54.085888
398329.14971066 -54.08123 103.07911 -0.0035685482 -0.24521756 -0.0086845011 -0.24147224 -50.638012 95.389122
400903.90822812 -53.901711 69.351089 -0.01187993 -0.18572791 -0.0089217778 -0.22392906 -50.657192 80.716156
403495.30971894 -50.861095 128.20901 -0.0096217534 -0.2636362 -0.0081880409 -0.22203285 -52.082287 24.477417
406103.46176156 -50.586548 124.09431 -0.0081339292 -0.23273203 -0.012931856 -0.22140822 -55.74567 83.587051
408728.47262984 -51.061108 142.74529 -0.0076833554 -0.21751265 -0.012419166 -0.21769056 -54.112427 50.114162
411370.45129748 -53.409378 90.136078 -0.014840459 -0.21453525 -0.016200624 -0.22910389 -52.585403 118.91991
414029.50744258 -51.90266 104.87248 -0.010016863 -0.20388226 -0.01701217 -0.23035729 -50.281532 71.87989
416705.7514522 -49.455555 119.45546 -0.010598578 -0.24549818 -0.013599863 -0.25489339 -51.291534 82.190178
419399.29442691 -49.81699 117.69237 -0.0092317592 -0.24553058 -0.01319987 -0.18695349 -54.088467 41.954632
422110.24818545 -51.078228 98.933693 -0.013370003 -0.23092712 -0.010977861 -0.23928368 -52.16198 80.535187
424838.72526933 -56.384354 122.92204 -0.0086634224 -0.23545495 -0.009104304 -0.24306306 -48.003063 92.382439
427584.8389475 -48.187851 72.009872 -0.0011566128 -0.22038628 -0.0083292015 -0.21721968 -61.366737 142.6488
430348.7032211 -52.190914 88.258545 -0.0048451135 -0.18247628 -0.012918282 -0.2369522 -53.224266 81.751663
433130.43282814 -50.343674 148.16331 -0.0085309735 -0.20578218 -0.011191725 -0.2200406 -53.771923 44.40863
435930.1432483 -49.980751 109.95173 -0.014153359 -0.23870373 -0.012685996 -0.2442881 -51.096684 51.724995
438747.95070769 -57.18066 55.41748 -0.0046086321 -0.23955742 -0.011152916 -0.24197653 -49.086864 95.769791
441583.97218371 -52.477898 64.548515 -0.0056302371 -0.22774132 -0.011003587 -0.25465143 -48.985607 117.80426
444438.32540988 -54.093391 122.75696 -0.013117829 -0.21174906 -0.017376335 -0.18922813 -51.925797 69.600388
447311.12888075 -49.243343 91.856224 -0.014935103 -0.19289224 -0.02408815 -0.21338442 -51.07859 76.260124
450202.50185679 -51.250496 131.73019 -0.016259771 -0.20371294 -0.0089212768 -0.20943548 -54.959023 77.14106
453112.56436936 -55.780437 97.686966 -0.0040549194 -0.23624973 -0.0050257128 -0.20885588 -51.533264 87.734642
456041.43722571 -48.818821 85.36924 -0.0087901223 -0.23836528 -0.010819404 -0.25718364 -57.419525 65.513153
458989.24201395 -47.061596 102.74899 -0.0072828075 -0.26090705 -0.011888699 -0.27222887 -64.041283 15.872653
461956.10110814 -54.714382 171.10776 -0.014014393 -0.26440021 -0.012477095 -0.24898782 -50.106422 85.989441
464942.13767335 -59.462456 135.64742 -0.0070866481 -0.21441244 -0.0064825765 -0.22499545 -47.974857 75.928841
467947.47567076 -53.866688 118.27839 -0.0063658212 -0.21733725 -0.0058768876 -0.24345097 -49.94062 78.53064
470972.23986285 -53.758739 71.788567 -0.0069341855 -0.2539255 -0.0087037217 -0.221073 -55.285366 95.36235
474016.55581852 -49.631607 119.07252 -0.014098204 -0.2422587 -0.013314879 -0.22691226 -51.336456 45.236954
477080.54991838 -58.989254 -121.28197 -0.0060295556 -0.20148452 -0.011730666 -0.17810105 -47.057583 68.121307
480164.3493599 -55.125137 156.41737 -0.0092370147 -0.27407485 -0.010879205 -0.24679534 -51.469501 78.89888
483268.08216277 -51.665234 50.342514 -0.0088757938 -0.23479918 -0.0086524477 -0.24775863 -49.996376 116.72929
486391.87717418 -52.890163 84.817863 -0.008687512 -0.2204321 -0.011329957 -0.24477929 -57.319466 91.994003
489535.86407418 -48.953491 104.5106 -0.009935705 -0.23890337 -0.012389448 -0.2434562 -52.078976 67.378593
492700.17338106 -50.832146 118.52604 -0.0081524337 -0.23297733 -0.0093329893 -0.23961905 -56.855961 65.748611
495884.93645675 -54.158772 97.636421 -0.0085471123 -0.25573897 -0.012550162 -0.21253394 -51.06863 86.912598
499090.2855123 -49.585243 102.8764 -0.013103234 -0.2429112 -0.010869022 -0.24888629 -52.686371 90.949837
502316.35361336 -52.881592 122.6206 -0.0056412104 -0.21611238 -0.0058002123 -0.26575404 -53.460732 95.1502
505563.27468572 -51.322441 79.601006 -0.0072005726 -0.2208305 -0.0065117883 -0.23737817 -58.119808 133.7106
508831.18352081 -55.974358 116.75265 -0.0046246699 -0.19144374 -0.011511184 -0.18391341 -57.406162 71.62632
512120.21578137 -50.713165 78.85379 -0.0069961273 -0.25657514 -0.0080258893 -0.25787219 -59.544651 67.715462
515430.50800705 -52.837418 140.12225 -0.0071103578 -0.23300667 -0.011113418 -0.22362363 -49.532215 82.484062
518762.19762006 -54.068611 146.16185 -0.010120857 -0.22608516 -0.010910103 -0.24230449 -50.592903 77.457405
522115.42293092 -54.247826 -170.48018 -0.0069897305 -0.21077172 -0.010427636 -0.22534245 -51.155815 89.272507
525490.32314414 -54.054848 82.733109 -0.0054454785 -0.23753771 -0.011252723 -0.22819887 -53.541496 28.637026
528887.03836406 -53.715176 83.408028 -0.0063592154 -0.22939137 -0.013039125 -0.21431647 -50.429749 75.597137
532305.70960063 -56.757168 50.65926 -0.0098119322 -0.25385085 -0.013262387 -0.23888913 -49.909706 70.121086
535746.47877528 -53.890812 125.83599 -0.0099224988 -0.25514403 -0.010156336 -0.2706849 -53.223385 63.961689
539209.4887268 -51.44006 107.14571 -0.0091071883 -0.19717717 -0.0089411549 -0.19150041 -54.05402 74.902153
542694.88321727 -56.358509 95.68811 -0.0050618132 -0.24453422 -0.0090273852 -0.30931529 -53.76405 112.96905
546202.80693805 -56.711712 112.30488 -0.0030441082 -0.23758483 -0.0041403887 -0.21452743 -57.069542 81.948227
549733.40551575 -47.744717 97.537949 -0.013999869 -0.21629781 -0.015372186 -0.22149143 -63.860447 62.549187
553286.82551832 -53.85989 82.35527 -0.010754793 -0.24036634 -0.0091481209 -0.27085334 -59.685692 72.89212
556863.21446108 -57.79372 125.87679 -0.011445062 -0.206543 -0.012870501 -0.20989998 -53.52013 13.171671
560462.72081289 -60.579922 147.25357 -0.011338945 -0.18942374 -0.0057104789 -0.20713061 -53.823013 59.946987
564085.4940023 -56.293026 138.88022 -0.0028481663 -0.18721284 -0.0063446444 -0.2172237 -50.699352 86.167961
567731.68442376 -54.953632 140.53293 -0.0088623855 -0.22004738 -0.0074299872 -0.22802998 -66.551491 151.37592
571401.44344382 -61.603199 112.87866 -0.0047417972 -0.22342528 -0.0091637997 -0.2655572 -63.761909 75.278961
575094.92340748 -54.164875 137.33655 -0.0029799163 -0.25883433 -0.0080717001 -0.22423357 -52.311504 42.927593
578812.27764447 -55.542511 102.66089 -0.0070638186 -0.27310723 -0.010133119 -0.24865004 -52.744995 93.163429
582553.66047563 -56.654362 147.80244 -0.010872285 -0.25717393 -0.012366191 -0.24253477 -48.857075 79.011459
586319.22721931 -53.765663 127.29268 -0.0091707418 -0.2355402 -0.0087757446 -0.22978368 -57.971546 43.834141
590109.13419783 -47.519115 108.36637 -0.0049356963 -0.26561058 -0.0066282586 -0.25580439 -54.002247 17.951702
593923.53874395 -51.567146 104.94339 -0.01105106 -0.25188321 -0.012204473 -0.28067732 -64.678528 97.834908
597762.59920742 -56.523865 146.0047 -0.01039929 -0.20881405 -0.010330803 -0.17750371 -53.536335 49.117588
601626.47496155 -55.055893 144.56476 -0.01346576 -0.22079884 -0.016221656 -0.21989393 -71.900887 -84.955788
605515.32640982 -55.333675 -170.24745 -0.011070663 -0.24251936 -0.0087874839 -0.23926038 -51.084702 76.753235
609429.31499253 -55.026768 118.00247 -0.012162404 -0.26275134 -0.011715202 -0.25640988 -53.635189 82.47419
613368.60319353 -60.110466 136.51924 -0.006341293 -0.20561703 -0.0063950364 -0.233504 -49.718166 65.758507
617333.35454694 -49.442322 100.09309 -0.010318319 -0.23628965 -0.014220172 -0.25162262 -71.983231 100.39756
621323.73364394 -54.833721 89.538902 -0.0032309578 -0.24745145 -0.010971678 -0.25737232 -61.68177 76.22805
625339.90613964 -60.325935 114.83641 -0.0097747734 -0.23350595 -0.011923642 -0.22976105 -53.128025 48.178028
629382.03875989 -54.21233 90.135162 -0.0070353826 -0.24822544 -0.008453602 -0.21896903 -58.83976 134.91508
633450.29930827 -54.771637 161.17615 -0.0083131213 -0.22608276 -0.0070570791 -0.23453574 -51.1917 49.567242
637544.856673 -55.731289 98.453331 -0.011183972 -0.24042666 -0.01547355 -0.21752538 -51.010391 85.733665
641665.88083399 -59.45602 48.265884 -0.0050864154 -0.27859771 -0.01315482 -0.26417518 -87.127213 6.0399852
645813.54286988 -60.541908 127.88242 -0.007073089 -0.23711149 -0.010362756 -0.24625269 -51.788052 87.408493
649988.01496514 -50.333267 105.92446 -0.0053471476 -0.28532749 -0.0083559155 -0.26693797 -55.18203 -21.567005
654189.47041724 -54.422134 125.8143 -0.0055478783 -0.18921331 -0.0085454583 -0.20772381 -60.242947 83.856468
658418.0836438 -51.787727 54.193199 -0.0077477205 -0.24042463 -0.0146304 -0.23381494 -58.125114 131.01784
662674.03018988 -51.318695 121.81134 -0.0063869534 -0.2494006 -0.011351232 -0.26325923 -53.935192 18.098324
666957.48673523 -60.966045 165.246 -0.0089077344 -0.24086766 -0.011436873 -0.29670918 -51.15472 47.834301
671268.63110166 -64.564728 -175.94644 -0.0021693462 -0.24498539 -0.0052991491 -0.25994378 -51.407639 35.339088
675607.64226037 -54.568707 79.102844 -0.005227169 -0.25380558 -0.0093030976 -0.29373538 -57.546936 101.08493
679974.70033944 -59.560146 -25.370834 -0.011989301 -0.27075037 -0.0079267519 -0.25505474 -50.514294 67.216393
684369.98663127 -59.816395 148.81828 -0.0033976026 -0.23960929 -0.013785075 -0.25781503 -56.402554 78.867188
688793.68360011 -53.184097 118.27253 -0.0076431516 -0.23112072 -0.015576887 -0.23961587 -53.194061 24.758001
693245.97488965 -49.549671 119.00033 -0.0065541654 -0.27068511 -0.011032362 -0.26408789 -54.846638 -11.543991
697727.04533061 -60.97707 127.68204 -0.012123175 -0.27131295 -0.014547221 -0.23911287 -52.269665 75.137619
702237.08094848 -52.698788 141.15079 -0.0069929003 -0.29441082 -0.013465893 -0.24257319 -54.031773 74.208885
706776.26897116 -66.469833 110.70472 -0.0083433632 -0.22921659 -0.0087280348 -0.26836371 -53.483131 9.957221
711344.79783679 -51.505688 70.612007 -0.0061896364 -0.26304036 -0.010992693 -0.26373538 -70.461662 155.27138
715942.85720155 -53.427658 145.15283 -0.005360099 -0.29143721 -0.0090920599 -0.29051164 -53.406582 35.715412
720570.63794754 -54.372082 99.708458 -0.0024973955 -0.27688903 -0.012594786 -0.3112492 -62.499531 -3.5586941
725228.3321907 -60.594131 136.98412 -0.0065878537 -0.32582241 -0.010291225 -0.29741994 -61.616035 57.614147
729916.13328879 -61.329731 91.026894 -0.0052470872 -0.25805226 -0.0098964609 -0.23116495 -57.850113 49.420441
734634.2358494 -60.427654 68.374016 -0.0080339629 -0.24813417 -0.0096521191 -0.23320843 -54.476688 62.922512
739382.83573808 -56.956493 149.3168 -0.0046030534 -0.27796856 -0.004744648 -0.26840344 -52.177372 66.011818
744162.1300864 -58.529041 72.926079 -0.00397162 -0.3174406 -0.0092594195 -0.28717679 -52.868946 98.910385
748972.31730018 -55.972313 57.231411 -0.010137622 -0.2343004 -0.010531502 -0.23688991 -57.731102 132.22559
753813.59706772 -51.047321 52.26968 -0.0099927634 -0.25547931 -0.010150425 -0.2687993 -76.349937 143.55605
758686.17036806 -55.471527 99.049934 -0.010426261 -0.26722553 -0.0086429743 -0.26552567 -56.961056 72.694275
763590.23947939 -58.258472 177.03511 -0.0074589029 -0.26251957 -0.009605852 -0.25277197 -54.932533 59.835831
768526.00798737 -58.338326 70.702934 -0.006688863 -0.29954946 -0.015113642 -0.30587137 -65.170654 86.020592
773493.68079363 -71.974808 -159.05997 -0.0048149475 -0.28625649 -0.0086785564 -0.24903636 -70.211502 77.692429
778493.46412426 -59.243351 170.08844 -0.0032011331 -0.28051198 -0.0038727955 -0.27995005 -58.598164 42.174446
783525.56553838 -57.134876 121.78747 -0.0086056078 -0.25963521 -0.0083260369 -0.28855532 -54.273697 -16.841959
788590.19393674 -68.743507 -150.70793 -0.0062593082 -0.25817415 -0.012558236 -0.28253585 -53.405083 92.387077
793687.55957042 -57.200733 69.975899 -0.0081707612 -0.27438471 -0.0073939161 -0.25603685 -61.691612 55.97541
798817.87404952 -54.85434 82.643356 -0.01109203 -0.32639608 -0.014632554 -0.33501288 -72.269081 -130.69487
803981.35035199 -55.593071 -164.76466 -0.0081701698 -0.27661794 -0.004533744 -0.25428236 -54.149773 56.475395
809178.20283241 -68.853889 -33.076031 -0.0010666815 -0.27325663 -0.0032877447 -0.27112287 -53.295746 76.11515
814408.64723098 -58.299328 150.88535 -0.010258287 -0.31936425 -0.0092131756 -0.31528443 -60.517155 41.040161
819672.90068237 -51.678165 155.38968 -0.0077601597 -0.28098616 -0.012623436 -0.30278808 -56.020565 39.083813
824971.18172482 -57.760696 92.544769 0.00093853305 -0.28178445 0.0019123268 -0.30008456 -60.520962 68.600853
830303.71030916 -50.416599 83.49482 -0.0037063467 -0.28228956 -0.0043134326 -0.31811684 -58.321388 -88.423828
835670.70780796 -60.925663 -166.31978 -0.0027720742 -0.29840022 -0.0020605447 -0.28426057 -56.603111 75.644753
841072.39702475 -59.758457 -7.5446639 -0.0077168476 -0.33885986 -0.010049749 -0.32743552 -56.93103 129.60655
846509.0022032 -63.889313 -143.72928 -0.0020555269 -0.28335682 -0.0092131458 -0.28531763 -50.016693 57.012165
851980.74903648 -53.393425 105.5834 -0.0038979007 -0.3321034 -0.0065985499 -0.33492386 -52.67474 74.656853
857487.86467662 -54.62471 168.80128 -0.013176914 -0.27177194 -0.0085342741 -0.26162454 -56.477776 75.325401
863030.57774395 -59.572842 -130.8335 -0.0045291362 -0.28813395 -0.015358171 -0.27015042 -59.236588 30.80637
868609.11833655 -53.728504 80.237579 -0.0070627807 -0.31999475 -0.011266721 -0.27916935 -53.877926 23.623484
874223.71803986 -53.60294 146.79184 -0.011824396 -0.28075665 -0.010562672 -0.33127597 -52.233704 22.494068
879874.60993624 -67.83223 125.86292 -0.0105601 -0.31049508 -0.0080741122 -0.30449912 -58.971298 90.469048
885562.02861468 -60.277504 -148.47093 -0.0054442487 -0.28226665 -0.0075686816 -0.27429855 -62.537407 12.623307
891286.21018054 -53.528828 35.936584 -0.0056629097 -0.27942237 -0.0058314032 -0.28343388 -56.803059 91.153885
897047.39226532 -50.460865 101.69139 -0.001230312 -0.30312517 -0.0085468646 -0.3278788 -62.075829 -48.952969
902845.81403657 -55.316868 156.44991 -0.0072628683 -0.28493136 -0.0069161947 -0.25677982 -54.306496 21.987898
908681.71620777 -54.756031 85.141838 -0.0093936184 -0.29061428 -0.0097404085 -0.33792675 -63.875729 -80.358154
914555.34104835 -65.343658 81.593773 -0.010059842 -0.29170021 -0.0051131546 -0.31698212 -62.999508 176.0901
920466.93239377 -64.198792 -96.019142 -0.0097079463 -0.31051508 -0.0067840982 -0.30995464 -51.178383 25.154747
926416.73565558 -57.409061 99.675209 -0.0050707902 -0.28011334 -0.0042313281 -0.2941415 -58.745605 -3.3089855
932404.99783168 -61.884075 164.10587 -0.0072738435 -0.29560399 -0.0073885433 -0.31212947 -59.320221 67.89399
938431.96751652 -60.51556 35.036049 -0.0096896878 -0.36622316 -0.010631154 -0.34681186 -54.675514 61.772648
944497.89491143 -62.091595 74.708427 -0.006871928 -0.31089386 -0.0065750959 -0.27256149 -54.534782 29.492115
950603.03183504 -54.259159 174.0611 -0.0034938902 -0.31455898 -0.0041163811 -0.30647221 -57.369667 40.679092
